
**** 04/23/24 02:02:31 ******* PSpice Lite (March 2016) ******* ID# 10813 ****

 ** Profile: "SCHEMATIC1-15612"  [ D:\Project\Circuit_Pspice\6_BJT_Amp_biasing-PSpiceFiles\SCHEMATIC1\15612.sim ] 


 ****     CIRCUIT DESCRIPTION


******************************************************************************




** Creating circuit file "15612.cir" 
** WARNING: THIS AUTOMATICALLY GENERATED FILE MAY BE OVERWRITTEN BY SUBSEQUENT SIMULATIONS

*Libraries: 
* Profile Libraries :
* Local Libraries :
* From [PSPICE NETLIST] section of C:\SPB_Data\cdssetup\OrCAD_PSpice\17.2.0\PSpice.ini file:
.lib "nomd.lib" 

*Analysis directives: 
.OP
.OPTIONS ADVCONV
.PROBE64 V(alias(*)) I(alias(*)) W(alias(*)) D(alias(*)) NOISE(alias(*)) 
.INC "..\SCHEMATIC1.net" 



**** INCLUDING SCHEMATIC1.net ****
* source 6_BJT_AMP_BIASING
R_R1         N00101 N00110  120k TC=0,0 
R_R2         N00110 N000660  2.7k TC=0,0 
Q_Q1         N00110 N00101 0 Q2N3904
V_V1         N000660 0 12Vdc

**** RESUMING 15612.cir ****
.END

**** 04/23/24 02:02:31 ******* PSpice Lite (March 2016) ******* ID# 10813 ****

 ** Profile: "SCHEMATIC1-15612"  [ D:\Project\Circuit_Pspice\6_BJT_Amp_biasing-PSpiceFiles\SCHEMATIC1\15612.sim ] 


 ****     BJT MODEL PARAMETERS


******************************************************************************




               Q2N3904         
               NPN             
       LEVEL    1            
          IS    6.734000E-15 
          BF  416.4          
          NF    1            
         VAF   74.03         
         IKF     .06678      
         ISE    6.734000E-15 
          NE    1.259        
          BR     .7371       
          NR    1            
         ISS    0            
          RB   10            
          RE    0            
          RC    1            
         CJE    4.493000E-12 
         VJE     .75         
         MJE     .2593       
         CJC    3.638000E-12 
         VJC     .75         
         MJC     .3085       
        XCJC    1            
         CJS    0            
         VJS     .75         
          TF  301.200000E-12 
         XTF    2            
         VTF    4            
         ITF     .4          
          TR  239.500000E-09 
         XTB    1.5          
          KF    0            
          AF    1            
          CN    2.42         
           D     .87         


**** 04/23/24 02:02:31 ******* PSpice Lite (March 2016) ******* ID# 10813 ****

 ** Profile: "SCHEMATIC1-15612"  [ D:\Project\Circuit_Pspice\6_BJT_Amp_biasing-PSpiceFiles\SCHEMATIC1\15612.sim ] 


 ****     SMALL SIGNAL BIAS SOLUTION       TEMPERATURE =   27.000 DEG C


******************************************************************************



 NODE   VOLTAGE     NODE   VOLTAGE     NODE   VOLTAGE     NODE   VOLTAGE


(N00101)     .6963 (N00110)    3.1942 (N000660)   12.0000                   




    VOLTAGE SOURCE CURRENTS
    NAME         CURRENT

    V_V1        -3.261E-03

    TOTAL POWER DISSIPATION   3.91E-02  WATTS


**** 04/23/24 02:02:31 ******* PSpice Lite (March 2016) ******* ID# 10813 ****

 ** Profile: "SCHEMATIC1-15612"  [ D:\Project\Circuit_Pspice\6_BJT_Amp_biasing-PSpiceFiles\SCHEMATIC1\15612.sim ] 


 ****     OPERATING POINT INFORMATION      TEMPERATURE =   27.000 DEG C


******************************************************************************






**** BIPOLAR JUNCTION TRANSISTORS


NAME         Q_Q1      
MODEL        Q2N3904   
IB           2.08E-05 
IC           3.24E-03 
VBE          6.96E-01 
VBC         -2.50E+00 
VCE          3.19E+00 
BETADC       1.56E+02 
GM           1.20E-01 
RPI          1.42E+03 
RX           1.00E+01 
RO           2.36E+04 
CBE          4.27E-11 
CBC          2.32E-12 
CJS          0.00E+00 
BETAAC       1.71E+02 
CBX/CBX2     0.00E+00 
FT/FT2       4.24E+08 



          JOB CONCLUDED

**** 04/23/24 02:02:31 ******* PSpice Lite (March 2016) ******* ID# 10813 ****

 ** Profile: "SCHEMATIC1-15612"  [ D:\Project\Circuit_Pspice\6_BJT_Amp_biasing-PSpiceFiles\SCHEMATIC1\15612.sim ] 


 ****     JOB STATISTICS SUMMARY


******************************************************************************



  Total job time (using Solver 1)   =         .02
