
**** 04/08/24 19:07:27 ******* PSpice Lite (March 2016) ******* ID# 10813 ****

 ** Profile: "SCHEMATIC1-040202"  [ D:\Project\Circuit_Pspice\040201_bipolar_junction-pspicefiles\schematic1\040202.sim ] 


 ****     CIRCUIT DESCRIPTION


******************************************************************************




** Creating circuit file "040202.cir" 
** WARNING: THIS AUTOMATICALLY GENERATED FILE MAY BE OVERWRITTEN BY SUBSEQUENT SIMULATIONS

*Libraries: 
* Profile Libraries :
* Local Libraries :
* From [PSPICE NETLIST] section of C:\SPB_Data\cdssetup\OrCAD_PSpice\17.2.0\PSpice.ini file:
.lib "nomd.lib" 

*Analysis directives: 
.OPTIONS ADVCONV
.PROBE64 V(alias(*)) I(alias(*)) W(alias(*)) D(alias(*)) NOISE(alias(*)) 
.INC "..\SCHEMATIC1.net" 



**** INCLUDING SCHEMATIC1.net ****
* source 040201_BIPOLAR_JUNCTION
Q_Q1         OUT N00171 0 Q2N3904
R_R1         N00166 N00171  4.7k TC=0,0 
V_V2         OUT 0 5Vdc
I_I1         0 N00166 DC 50uAdc  

**** RESUMING 040202.cir ****
.END

**** 04/08/24 19:07:27 ******* PSpice Lite (March 2016) ******* ID# 10813 ****

 ** Profile: "SCHEMATIC1-040202"  [ D:\Project\Circuit_Pspice\040201_bipolar_junction-pspicefiles\schematic1\040202.sim ] 


 ****     BJT MODEL PARAMETERS


******************************************************************************




               Q2N3904         
               NPN             
       LEVEL    1            
          IS    6.734000E-15 
          BF  416.4          
          NF    1            
         VAF   74.03         
         IKF     .06678      
         ISE    6.734000E-15 
          NE    1.259        
          BR     .7371       
          NR    1            
         ISS    0            
          RB   10            
          RE    0            
          RC    1            
         CJE    4.493000E-12 
         VJE     .75         
         MJE     .2593       
         CJC    3.638000E-12 
         VJC     .75         
         MJC     .3085       
        XCJC    1            
         CJS    0            
         VJS     .75         
          TF  301.200000E-12 
         XTF    2            
         VTF    4            
         ITF     .4          
          TR  239.500000E-09 
         XTB    1.5          
          KF    0            
          AF    1            
          CN    2.42         
           D     .87         


**** 04/08/24 19:07:27 ******* PSpice Lite (March 2016) ******* ID# 10813 ****

 ** Profile: "SCHEMATIC1-040202"  [ D:\Project\Circuit_Pspice\040201_bipolar_junction-pspicefiles\schematic1\040202.sim ] 


 ****     SMALL SIGNAL BIAS SOLUTION       TEMPERATURE =   27.000 DEG C


******************************************************************************



 NODE   VOLTAGE     NODE   VOLTAGE     NODE   VOLTAGE     NODE   VOLTAGE


(  OUT)    5.0000  (N00166)     .9574 (N00171)     .7224 




    VOLTAGE SOURCE CURRENTS
    NAME         CURRENT

    V_V2        -8.422E-03

    TOTAL POWER DISSIPATION   4.21E-02  WATTS



          JOB CONCLUDED

**** 04/08/24 19:07:27 ******* PSpice Lite (March 2016) ******* ID# 10813 ****

 ** Profile: "SCHEMATIC1-040202"  [ D:\Project\Circuit_Pspice\040201_bipolar_junction-pspicefiles\schematic1\040202.sim ] 


 ****     JOB STATISTICS SUMMARY


******************************************************************************



  Total job time (using Solver 1)   =         .06
